
T1754 000:056 SEGGER J-Link V4.68a Log File (0001ms, 0055ms total)
T1754 000:056 DLL Compiled: Apr 12 2013 13:26:50 (0001ms, 0055ms total)
T1754 000:056 Logging started @ 2018-10-13 17:19 (0001ms, 0055ms total)
T1754 000:057 JLINK_SetWarnOutHandler(...) (0000ms, 0055ms total)
T1754 000:057 JLINK_OpenEx(...)
Firmware: J-Link ARM V8 compiled Jul 17 2013 11:24:15
Hardware: V8.00
S/N: 12345678
Feature(s): RDI,FlashDL,FlashBP,JFlash,GDBFull  returns O.K. (0016ms, 0071ms total)
T1754 000:073 JLINK_SetErrorOutHandler(...) (0000ms, 0071ms total)
T1754 000:073 JLINK_ExecCommand("ProjectFile = "E:\ODM\金科\软件\200W电池综合测试仪A1\Project\JLinkSettings.ini"", ...)  returns 0x00 (0001ms, 0072ms total)
T1754 000:078 JLINK_ExecCommand("Device = STM32F407VE", ...)
                JLINK_AddMirrorAreaEx(Addr = 0x00000000, Size = 0x00000000) (0000ms, 0000ms total)
              Device "STM32F407VE" selected (512 KB flash, 128 KB RAM).  returns 0x00 (0006ms, 0078ms total)
T1754 000:084 JLINK_ExecCommand("DisableConnectionTimeout", ...)  returns 0x00 (0000ms, 0078ms total)
T1754 000:084 JLINK_GetHardwareVersion()  returns 0x13880 (0001ms, 0079ms total)
T1754 000:085 JLINK_GetDLLVersion()  returns 46801 (0000ms, 0079ms total)
T1754 000:085 JLINK_GetFirmwareString(...) (0000ms, 0079ms total)
T1754 000:094 JLINK_GetDLLVersion()  returns 46801 (0000ms, 0079ms total)
T1754 000:094 JLINK_GetCompileDateTime() (0000ms, 0079ms total)
T1754 000:096 JLINK_GetFirmwareString(...) (0001ms, 0080ms total)
T1754 000:099 JLINK_GetHardwareVersion()  returns 0x13880 (0000ms, 0080ms total)
T1754 000:107 JLINK_TIF_Select(JLINKARM_TIF_SWD)  returns 0x00 (0002ms, 0082ms total)
T1754 000:109 JLINK_SetSpeed(200) (0001ms, 0083ms total)
T1754 000:110 JLINK_GetId() >0x108 TIF>Found SWD-DP with ID 0x2BA01477 >0x0D TIF> >0x28 TIF> >0x0D TIF> >0x28 TIF> >0x0D TIF> >0x21 TIF> >0x0D TIF> >0x28 TIF> >0x0D TIF> >0x28 TIF> >0x0D TIF> >0x28 TIF> >0x0D TIF> >0x21 TIF> >0x0D TIF> >0x21 TIF> >0x0D TIF> >0x28 TIF> >0x0D TIF> >0x21 TIF> >0x0D TIF> >0x21 TIF> >0x0D TIF> >0x28 TIF> >0x0D TIF> >0x28 TIF> >0x0D TIF> >0x28 TIF> >0x0D TIF> >0x21 TIF> >0x0D TIF> >0x21 TIF> >0x0D TIF> >0x28 TIF> >0x0D TIF> >0x28 TIF> >0x108 TIF>Found SWD-DP with ID 0x2BA01477
 >0x0D TIF> >0x21 TIF> >0x0D TIF> >0x28 TIF> >0x0D TIF> >0x28 TIF> >0x0D TIF> >0x21 TIF> >0x0D TIF> >0x21 TIF> >0x0D TIF> >0x28 TIF> >0x0D TIF> >0x21 TIF> >0x0D TIF> >0x21 TIF> >0x0D TIF> >0x21 TIF> >0x0D TIF> >0x21 TIF> >0x0D TIF> >0x21 TIF> >0x0D TIF> >0x28 TIF> >0x0D TIF> >0x28 TIF> >0x0D TIF> >0x21 TIF> >0x0D TIF> >0x21 TIF> >0x0D TIF> >0x28 TIF> >0x0D TIF> >0x21 TIF> >0x0D TIF> >0x21 TIF> >0x0D TIF> >0x28 TIF> >0x0D TIF> >0x28 TIF> >0x0D TIF> >0x28 TIF> >0x0D TIF> >0x21 TIF> >0x0D TIF> >0x21 TIF>
 >0x0D TIF> >0x28 TIF> >0x0D TIF> >0x28 TIF> >0x0D TIF> >0x28 TIF> >0x0D TIF> >0x28 TIF> >0x0D TIF> >0x28 TIF> >0x0D TIF> >0x21 TIF> >0x0D TIF> >0x21 TIF> >0x0D TIF> >0x21 TIF>TPIU fitted.ETM fitted. >0x0D TIF> >0x28 TIF> >0x0D TIF> >0x21 TIF> >0x0D TIF> >0x21 TIF> >0x0D TIF> >0x28 TIF> >0x0D TIF> >0x21 TIF> >0x0D TIF> >0x21 TIF>FPUnit: 6 code (BP) slots and 2 literal slots >0x0D TIF> >0x28 TIF> >0x0D TIF> >0x21 TIF> >0x0D TIF> >0x21 TIF> >0x0D TIF> >0x28 TIF> >0x0D TIF> >0x28 TIF> >0x0D TIF> >0x28 TIF>
 >0x0D TIF> >0x21 TIF> >0x0D TIF> >0x21 TIF> >0x0D TIF> >0x28 TIF> >0x0D TIF> >0x21 TIF> >0x0D TIF> >0x21 TIF> >0x0D TIF> >0x28 TIF> >0x0D TIF> >0x21 TIF> >0x0D TIF> >0x21 TIF>Found Cortex-M4 r0p1, Little endian. >0x0D TIF> >0x21 TIF>  returns 0x2BA01477 (0116ms, 0199ms total)
T1754 000:226 JLINK_GetDeviceFamily()  returns 14 (0000ms, 0199ms total)
T1754 000:228 JLINK_ReadMem (0xE00FFFF0, 0x0010 Bytes, ...) -- CPU is running -- CPU_ReadMem(16 bytes @ 0xE00FFFF0) -- Data:  0D 00 00 00 10 00 00 00 05 00 00 00 B1 00 00 00  returns 0x00 (0004ms, 0203ms total)
T1754 000:232 JLINK_ReadMem (0xE00FFFD0, 0x0020 Bytes, ...) -- CPU is running -- CPU_ReadMem(32 bytes @ 0xE00FFFD0) -- Data:  00 00 00 00 00 00 00 00 00 00 00 00 00 00 00 00 ...  returns 0x00 (0003ms, 0206ms total)
T1754 000:235 JLINK_ReadMem (0xE00FF000, 0x0018 Bytes, ...) -- CPU is running -- CPU_ReadMem(24 bytes @ 0xE00FF000) -- Data:  03 F0 F0 FF 03 20 F0 FF 03 30 F0 FF 03 10 F0 FF ...  returns 0x00 (0004ms, 0210ms total)
T1754 000:239 JLINK_ReadMemU32(0xE000ED00, 0x0001 Items, ...) -- CPU is running -- CPU_ReadMem(4 bytes @ 0xE000ED00) -- Data:  41 C2 0F 41  returns 0x01 (0002ms, 0212ms total)
T1754 000:241 JLINK_ReadMemU32(0xE000EF40, 0x0001 Items, ...) -- CPU is running -- CPU_ReadMem(4 bytes @ 0xE000EF40) -- Data:  21 00 11 10  returns 0x01 (0002ms, 0214ms total)
T1754 000:243 JLINK_ReadMemU32(0xE000EF44, 0x0001 Items, ...) -- CPU is running -- CPU_ReadMem(4 bytes @ 0xE000EF44) -- Data:  11 00 00 11  returns 0x01 (0002ms, 0216ms total)
T1754 000:245 JLINK_SetResetType(JLINKARM_RESET_TYPE_NORMAL)  returns JLINKARM_RESET_TYPE_NORMAL (0000ms, 0216ms total)
T1754 000:245 JLINK_Reset() -- CPU is running -- CPU_WriteMem(4 bytes @ 0xE000EDF0) -- CPU is running -- CPU_WriteMem(4 bytes @ 0xE000EDFC) >0x35 TIF> -- CPU is running -- CPU_WriteMem(4 bytes @ 0xE000ED0C) -- CPU is running -- CPU_ReadMem(4 bytes @ 0xE000EDF0) -- CPU is running -- CPU_ReadMem(4 bytes @ 0xE000EDF0) -- CPU is running -- CPU_WriteMem(4 bytes @ 0xE000EDF0) -- CPU is running -- CPU_WriteMem(4 bytes @ 0xE000EDFC) -- CPU is running -- CPU_ReadMem(4 bytes @ 0xE000EDF0)
 -- CPU_WriteMem(4 bytes @ 0xE0002000) (0047ms, 0263ms total)
T1754 000:292 JLINK_Halt()  returns 0x00 (0000ms, 0263ms total)
T1754 000:292 JLINK_IsHalted()  returns TRUE (0000ms, 0263ms total)
T1754 000:292 JLINK_ReadMemU32(0xE000EDF0, 0x0001 Items, ...) -- CPU_ReadMem(4 bytes @ 0xE000EDF0) -- Data:  03 00 03 00  returns 0x01 (0002ms, 0265ms total)
T1754 000:294 JLINK_WriteU32(0xE000EDF0, 0xA05F0003) -- CPU_WriteMem(4 bytes @ 0xE000EDF0)  returns 0x00 (0002ms, 0267ms total)
T1754 000:296 JLINK_WriteU32(0xE000EDFC, 0x01000000) -- CPU_WriteMem(4 bytes @ 0xE000EDFC)  returns 0x00 (0002ms, 0269ms total)
T1754 000:308 JLINK_GetHWStatus(...)  returns 0x00 (0000ms, 0269ms total)
T1754 000:315 JLINK_GetNumBPUnits(Type = 0xFFFFFF00)  returns 0x06 (0000ms, 0269ms total)
T1754 000:315 JLINK_GetNumBPUnits(Type = 0xF0)  returns 0x2000 (0000ms, 0269ms total)
T1754 000:315 JLINK_GetNumWPUnits()  returns 0x04 (0000ms, 0269ms total)
T1754 000:327 JLINK_GetSpeed()  returns 0xC8 (0000ms, 0269ms total)
T1754 000:332 JLINK_ReadMemU32(0xE000E004, 0x0001 Items, ...) -- CPU_ReadMem(4 bytes @ 0xE000E004) -- Data:  02 00 00 00  returns 0x01 (0002ms, 0271ms total)
T1754 000:334 JLINK_ReadMemU32(0xE000E004, 0x0001 Items, ...) -- CPU_ReadMem(4 bytes @ 0xE000E004) -- Data:  02 00 00 00  returns 0x01 (0002ms, 0273ms total)
T1754 000:336 JLINK_WriteMem(0xE0001000, 0x001C Bytes, ...) -- Data:  01 00 00 00 00 00 00 00 00 00 00 00 00 00 00 00 ... -- CPU_WriteMem(28 bytes @ 0xE0001000)  returns 0x1C (0004ms, 0277ms total)
T1754 000:340 JLINK_ReadMem (0xE0001000, 0x001C Bytes, ...) -- CPU_ReadMem(28 bytes @ 0xE0001000) -- Data:  01 00 00 40 00 00 00 00 00 00 00 00 00 00 00 00 ...  returns 0x00 (0003ms, 0280ms total)
T1754 000:343 JLINK_Halt()  returns 0x00 (0000ms, 0280ms total)
T1754 000:343 JLINK_IsHalted()  returns TRUE (0001ms, 0281ms total)
T1754 000:346 JLINK_WriteMem(0x20000000, 0x0180 Bytes, ...) -- Data:  00 BE 0A E0 0D 78 2D 06 68 40 08 24 40 00 00 D3 ... -- CPU_WriteMem(384 bytes @ 0x20000000)  returns 0x180 (0026ms, 0306ms total)
T1754 000:372 JLINK_WriteReg(R0, 0x08000000)  returns 0x00 (0000ms, 0306ms total)
T1754 000:372 JLINK_WriteReg(R1, 0x017D7840)  returns 0x00 (0000ms, 0306ms total)
T1754 000:372 JLINK_WriteReg(R2, 0x00000001)  returns 0x00 (0000ms, 0306ms total)
T1754 000:372 JLINK_WriteReg(R3, 0x00000000)  returns 0x00 (0000ms, 0306ms total)
T1754 000:372 JLINK_WriteReg(R4, 0x00000000)  returns 0x00 (0000ms, 0306ms total)
T1754 000:372 JLINK_WriteReg(R5, 0x00000000)  returns 0x00 (0000ms, 0306ms total)
T1754 000:372 JLINK_WriteReg(R6, 0x00000000)  returns 0x00 (0000ms, 0306ms total)
T1754 000:372 JLINK_WriteReg(R7, 0x00000000)  returns 0x00 (0000ms, 0306ms total)
T1754 000:372 JLINK_WriteReg(R8, 0x00000000)  returns 0x00 (0000ms, 0306ms total)
T1754 000:372 JLINK_WriteReg(R9, 0x2000017C)  returns 0x00 (0000ms, 0306ms total)
T1754 000:372 JLINK_WriteReg(R10, 0x00000000)  returns 0x00 (0000ms, 0306ms total)
T1754 000:372 JLINK_WriteReg(R11, 0x00000000)  returns 0x00 (0000ms, 0306ms total)
T1754 000:372 JLINK_WriteReg(R12, 0x00000000)  returns 0x00 (0000ms, 0306ms total)
T1754 000:372 JLINK_WriteReg(R13, 0x20000800)  returns 0x00 (0000ms, 0306ms total)
T1754 000:372 JLINK_WriteReg(R14, 0x20000001)  returns 0x00 (0000ms, 0306ms total)
T1754 000:372 JLINK_WriteReg(R15, 0x20000054)  returns 0x00 (0000ms, 0306ms total)
T1754 000:372 JLINK_WriteReg(XPSR, 0x01000000)  returns 0x00 (0000ms, 0306ms total)
T1754 000:372 JLINK_WriteReg(MSP, 0x20000800)  returns 0x00 (0000ms, 0306ms total)
T1754 000:372 JLINK_WriteReg(PSP, 0x20000800)  returns 0x00 (0000ms, 0306ms total)
T1754 000:372 JLINK_WriteReg(CFBP, 0x00000000)  returns 0x00 (0000ms, 0306ms total)
T1754 000:372 JLINK_SetBPEx(Addr = 0x20000000, Type = 0xFFFFFFF2) -- CPU_ReadMem(2 bytes @ 0x20000000)  returns 0x00000001 (0002ms, 0308ms total)
T1754 000:374 JLINK_Go() -- CPU_WriteMem(2 bytes @ 0x20000000) -- CPU_WriteMem(4 bytes @ 0xE0002008) -- CPU_WriteMem(4 bytes @ 0xE000200C) -- CPU_WriteMem(4 bytes @ 0xE0002010) -- CPU_WriteMem(4 bytes @ 0xE0002014) -- CPU_WriteMem(4 bytes @ 0xE0002018) -- CPU_WriteMem(4 bytes @ 0xE000201C) (0024ms, 0332ms total)
T1754 000:398 JLINK_IsHalted() -- CPU_ReadMem(2 bytes @ 0x20000000)  returns TRUE (0021ms, 0353ms total)
T1754 000:419 JLINK_ReadReg(R15)  returns 0x20000000 (0000ms, 0332ms total)
T1754 000:419 JLINK_ClrBPEx(BPHandle = 0x00000001)  returns 0x00 (0000ms, 0332ms total)
T1754 000:419 JLINK_ReadReg(R0)  returns 0x00000000 (0000ms, 0332ms total)
T1754 000:419 JLINK_WriteReg(R0, 0x08000000)  returns 0x00 (0000ms, 0332ms total)
T1754 000:419 JLINK_WriteReg(R1, 0x00004000)  returns 0x00 (0000ms, 0332ms total)
T1754 000:419 JLINK_WriteReg(R2, 0x000000FF)  returns 0x00 (0000ms, 0332ms total)
T1754 000:419 JLINK_WriteReg(R3, 0x00000000)  returns 0x00 (0000ms, 0332ms total)
T1754 000:419 JLINK_WriteReg(R4, 0x00000000)  returns 0x00 (0000ms, 0332ms total)
T1754 000:419 JLINK_WriteReg(R5, 0x00000000)  returns 0x00 (0000ms, 0332ms total)
T1754 000:419 JLINK_WriteReg(R6, 0x00000000)  returns 0x00 (0000ms, 0332ms total)
T1754 000:419 JLINK_WriteReg(R7, 0x00000000)  returns 0x00 (0000ms, 0332ms total)
T1754 000:419 JLINK_WriteReg(R8, 0x00000000)  returns 0x00 (0000ms, 0332ms total)
T1754 000:419 JLINK_WriteReg(R9, 0x2000017C)  returns 0x00 (0000ms, 0332ms total)
T1754 000:419 JLINK_WriteReg(R10, 0x00000000)  returns 0x00 (0000ms, 0332ms total)
T1754 000:419 JLINK_WriteReg(R11, 0x00000000)  returns 0x00 (0000ms, 0332ms total)
T1754 000:419 JLINK_WriteReg(R12, 0x00000000)  returns 0x00 (0000ms, 0332ms total)
T1754 000:419 JLINK_WriteReg(R13, 0x20000800)  returns 0x00 (0000ms, 0332ms total)
T1754 000:419 JLINK_WriteReg(R14, 0x20000001)  returns 0x00 (0000ms, 0332ms total)
T1754 000:419 JLINK_WriteReg(R15, 0x20000020)  returns 0x00 (0000ms, 0332ms total)
T1754 000:419 JLINK_WriteReg(XPSR, 0x01000000)  returns 0x00 (0000ms, 0332ms total)
T1754 000:419 JLINK_WriteReg(MSP, 0x20000800)  returns 0x00 (0000ms, 0332ms total)
T1754 000:419 JLINK_WriteReg(PSP, 0x20000800)  returns 0x00 (0000ms, 0332ms total)
T1754 000:419 JLINK_WriteReg(CFBP, 0x00000000)  returns 0x00 (0001ms, 0333ms total)
T1754 000:420 JLINK_SetBPEx(Addr = 0x20000000, Type = 0xFFFFFFF2)  returns 0x00000002 (0000ms, 0333ms total)
T1754 000:420 JLINK_Go() (0007ms, 0340ms total)
T1754 000:427 JLINK_IsHalted()  returns FALSE (0003ms, 0343ms total)
T1754 000:482 JLINK_IsHalted() -- CPU_ReadMem(2 bytes @ 0x20000000)  returns TRUE (0021ms, 0361ms total)
T1754 000:503 JLINK_ReadReg(R15)  returns 0x20000000 (0000ms, 0340ms total)
T1754 000:503 JLINK_ClrBPEx(BPHandle = 0x00000002)  returns 0x00 (0000ms, 0340ms total)
T1754 000:503 JLINK_ReadReg(R0)  returns 0x00000000 (0000ms, 0340ms total)
T1754 000:503 JLINK_WriteReg(R0, 0x08004000)  returns 0x00 (0000ms, 0340ms total)
T1754 000:504 JLINK_WriteReg(R1, 0x00004000)  returns 0x00 (0000ms, 0341ms total)
T1754 000:504 JLINK_WriteReg(R2, 0x000000FF)  returns 0x00 (0000ms, 0341ms total)
T1754 000:504 JLINK_WriteReg(R3, 0x00000000)  returns 0x00 (0000ms, 0341ms total)
T1754 000:504 JLINK_WriteReg(R4, 0x00000000)  returns 0x00 (0000ms, 0341ms total)
T1754 000:504 JLINK_WriteReg(R5, 0x00000000)  returns 0x00 (0000ms, 0341ms total)
T1754 000:504 JLINK_WriteReg(R6, 0x00000000)  returns 0x00 (0000ms, 0341ms total)
T1754 000:504 JLINK_WriteReg(R7, 0x00000000)  returns 0x00 (0000ms, 0341ms total)
T1754 000:504 JLINK_WriteReg(R8, 0x00000000)  returns 0x00 (0000ms, 0341ms total)
T1754 000:504 JLINK_WriteReg(R9, 0x2000017C)  returns 0x00 (0000ms, 0341ms total)
T1754 000:504 JLINK_WriteReg(R10, 0x00000000)  returns 0x00 (0000ms, 0341ms total)
T1754 000:504 JLINK_WriteReg(R11, 0x00000000)  returns 0x00 (0000ms, 0341ms total)
T1754 000:504 JLINK_WriteReg(R12, 0x00000000)  returns 0x00 (0000ms, 0341ms total)
T1754 000:504 JLINK_WriteReg(R13, 0x20000800)  returns 0x00 (0000ms, 0341ms total)
T1754 000:504 JLINK_WriteReg(R14, 0x20000001)  returns 0x00 (0000ms, 0341ms total)
T1754 000:504 JLINK_WriteReg(R15, 0x20000020)  returns 0x00 (0000ms, 0341ms total)
T1754 000:504 JLINK_WriteReg(XPSR, 0x01000000)  returns 0x00 (0000ms, 0341ms total)
T1754 000:504 JLINK_WriteReg(MSP, 0x20000800)  returns 0x00 (0000ms, 0341ms total)
T1754 000:504 JLINK_WriteReg(PSP, 0x20000800)  returns 0x00 (0000ms, 0341ms total)
T1754 000:504 JLINK_WriteReg(CFBP, 0x00000000)  returns 0x00 (0000ms, 0341ms total)
T1754 000:504 JLINK_SetBPEx(Addr = 0x20000000, Type = 0xFFFFFFF2)  returns 0x00000003 (0000ms, 0341ms total)
T1754 000:504 JLINK_Go() (0007ms, 0348ms total)
T1754 000:511 JLINK_IsHalted()  returns FALSE (0003ms, 0351ms total)
T1754 000:543 JLINK_IsHalted() -- CPU_ReadMem(2 bytes @ 0x20000000)  returns TRUE (0021ms, 0369ms total)
T1754 000:564 JLINK_ReadReg(R15)  returns 0x20000000 (0000ms, 0348ms total)
T1754 000:564 JLINK_ClrBPEx(BPHandle = 0x00000003)  returns 0x00 (0000ms, 0348ms total)
T1754 000:564 JLINK_ReadReg(R0)  returns 0x00000000 (0000ms, 0348ms total)
T1754 000:564 JLINK_WriteReg(R0, 0x08008000)  returns 0x00 (0000ms, 0348ms total)
T1754 000:564 JLINK_WriteReg(R1, 0x00004000)  returns 0x00 (0000ms, 0348ms total)
T1754 000:564 JLINK_WriteReg(R2, 0x000000FF)  returns 0x00 (0000ms, 0348ms total)
T1754 000:564 JLINK_WriteReg(R3, 0x00000000)  returns 0x00 (0000ms, 0348ms total)
T1754 000:564 JLINK_WriteReg(R4, 0x00000000)  returns 0x00 (0000ms, 0348ms total)
T1754 000:564 JLINK_WriteReg(R5, 0x00000000)  returns 0x00 (0000ms, 0348ms total)
T1754 000:564 JLINK_WriteReg(R6, 0x00000000)  returns 0x00 (0000ms, 0348ms total)
T1754 000:564 JLINK_WriteReg(R7, 0x00000000)  returns 0x00 (0000ms, 0348ms total)
T1754 000:564 JLINK_WriteReg(R8, 0x00000000)  returns 0x00 (0000ms, 0348ms total)
T1754 000:564 JLINK_WriteReg(R9, 0x2000017C)  returns 0x00 (0000ms, 0348ms total)
T1754 000:564 JLINK_WriteReg(R10, 0x00000000)  returns 0x00 (0000ms, 0348ms total)
T1754 000:564 JLINK_WriteReg(R11, 0x00000000)  returns 0x00 (0001ms, 0349ms total)
T1754 000:565 JLINK_WriteReg(R12, 0x00000000)  returns 0x00 (0000ms, 0349ms total)
T1754 000:565 JLINK_WriteReg(R13, 0x20000800)  returns 0x00 (0000ms, 0349ms total)
T1754 000:565 JLINK_WriteReg(R14, 0x20000001)  returns 0x00 (0000ms, 0349ms total)
T1754 000:565 JLINK_WriteReg(R15, 0x20000020)  returns 0x00 (0000ms, 0349ms total)
T1754 000:565 JLINK_WriteReg(XPSR, 0x01000000)  returns 0x00 (0000ms, 0349ms total)
T1754 000:565 JLINK_WriteReg(MSP, 0x20000800)  returns 0x00 (0000ms, 0349ms total)
T1754 000:565 JLINK_WriteReg(PSP, 0x20000800)  returns 0x00 (0000ms, 0349ms total)
T1754 000:565 JLINK_WriteReg(CFBP, 0x00000000)  returns 0x00 (0000ms, 0349ms total)
T1754 000:565 JLINK_SetBPEx(Addr = 0x20000000, Type = 0xFFFFFFF2)  returns 0x00000004 (0000ms, 0349ms total)
T1754 000:565 JLINK_Go() (0007ms, 0356ms total)
T1754 000:572 JLINK_IsHalted()  returns FALSE (0002ms, 0358ms total)
T1754 000:575 JLINK_IsHalted()  returns FALSE (0002ms, 0358ms total)
T1754 000:578 JLINK_IsHalted()  returns FALSE (0002ms, 0358ms total)
T1754 000:581 JLINK_IsHalted()  returns FALSE (0002ms, 0358ms total)
T1754 000:584 JLINK_IsHalted()  returns FALSE (0002ms, 0358ms total)
T1754 000:587 JLINK_IsHalted() -- CPU_ReadMem(2 bytes @ 0x20000000)  returns TRUE (0021ms, 0377ms total)
T1754 000:608 JLINK_ReadReg(R15)  returns 0x20000000 (0000ms, 0356ms total)
T1754 000:608 JLINK_ClrBPEx(BPHandle = 0x00000004)  returns 0x00 (0000ms, 0356ms total)
T1754 000:608 JLINK_ReadReg(R0)  returns 0x00000000 (0000ms, 0356ms total)
T1754 000:608 JLINK_WriteReg(R0, 0x0800C000)  returns 0x00 (0000ms, 0356ms total)
T1754 000:608 JLINK_WriteReg(R1, 0x00004000)  returns 0x00 (0000ms, 0356ms total)
T1754 000:608 JLINK_WriteReg(R2, 0x000000FF)  returns 0x00 (0000ms, 0356ms total)
T1754 000:608 JLINK_WriteReg(R3, 0x00000000)  returns 0x00 (0000ms, 0356ms total)
T1754 000:608 JLINK_WriteReg(R4, 0x00000000)  returns 0x00 (0000ms, 0356ms total)
T1754 000:608 JLINK_WriteReg(R5, 0x00000000)  returns 0x00 (0000ms, 0356ms total)
T1754 000:608 JLINK_WriteReg(R6, 0x00000000)  returns 0x00 (0000ms, 0356ms total)
T1754 000:608 JLINK_WriteReg(R7, 0x00000000)  returns 0x00 (0001ms, 0357ms total)
T1754 000:609 JLINK_WriteReg(R8, 0x00000000)  returns 0x00 (0000ms, 0357ms total)
T1754 000:609 JLINK_WriteReg(R9, 0x2000017C)  returns 0x00 (0000ms, 0357ms total)
T1754 000:609 JLINK_WriteReg(R10, 0x00000000)  returns 0x00 (0000ms, 0357ms total)
T1754 000:609 JLINK_WriteReg(R11, 0x00000000)  returns 0x00 (0000ms, 0357ms total)
T1754 000:609 JLINK_WriteReg(R12, 0x00000000)  returns 0x00 (0000ms, 0357ms total)
T1754 000:609 JLINK_WriteReg(R13, 0x20000800)  returns 0x00 (0000ms, 0357ms total)
T1754 000:609 JLINK_WriteReg(R14, 0x20000001)  returns 0x00 (0000ms, 0357ms total)
T1754 000:609 JLINK_WriteReg(R15, 0x20000020)  returns 0x00 (0000ms, 0357ms total)
T1754 000:609 JLINK_WriteReg(XPSR, 0x01000000)  returns 0x00 (0000ms, 0357ms total)
T1754 000:609 JLINK_WriteReg(MSP, 0x20000800)  returns 0x00 (0000ms, 0357ms total)
T1754 000:609 JLINK_WriteReg(PSP, 0x20000800)  returns 0x00 (0000ms, 0357ms total)
T1754 000:609 JLINK_WriteReg(CFBP, 0x00000000)  returns 0x00 (0000ms, 0357ms total)
T1754 000:609 JLINK_SetBPEx(Addr = 0x20000000, Type = 0xFFFFFFF2)  returns 0x00000005 (0000ms, 0357ms total)
T1754 000:609 JLINK_Go() (0007ms, 0364ms total)
T1754 000:616 JLINK_IsHalted()  returns FALSE (0003ms, 0367ms total)
T1754 000:620 JLINK_IsHalted()  returns FALSE (0002ms, 0366ms total)
T1754 000:647 JLINK_IsHalted() -- CPU_ReadMem(2 bytes @ 0x20000000)  returns TRUE (0021ms, 0385ms total)
T1754 000:668 JLINK_ReadReg(R15)  returns 0x20000000 (0000ms, 0364ms total)
T1754 000:668 JLINK_ClrBPEx(BPHandle = 0x00000005)  returns 0x00 (0000ms, 0364ms total)
T1754 000:668 JLINK_ReadReg(R0)  returns 0x00000000 (0000ms, 0364ms total)
T1754 000:669 JLINK_WriteReg(R0, 0x08010000)  returns 0x00 (0000ms, 0364ms total)
T1754 000:669 JLINK_WriteReg(R1, 0x00010000)  returns 0x00 (0000ms, 0364ms total)
T1754 000:669 JLINK_WriteReg(R2, 0x000000FF)  returns 0x00 (0000ms, 0364ms total)
T1754 000:669 JLINK_WriteReg(R3, 0x00000000)  returns 0x00 (0000ms, 0364ms total)
T1754 000:669 JLINK_WriteReg(R4, 0x00000000)  returns 0x00 (0000ms, 0364ms total)
T1754 000:669 JLINK_WriteReg(R5, 0x00000000)  returns 0x00 (0000ms, 0364ms total)
T1754 000:669 JLINK_WriteReg(R6, 0x00000000)  returns 0x00 (0000ms, 0364ms total)
T1754 000:669 JLINK_WriteReg(R7, 0x00000000)  returns 0x00 (0000ms, 0364ms total)
T1754 000:669 JLINK_WriteReg(R8, 0x00000000)  returns 0x00 (0000ms, 0364ms total)
T1754 000:669 JLINK_WriteReg(R9, 0x2000017C)  returns 0x00 (0000ms, 0364ms total)
T1754 000:669 JLINK_WriteReg(R10, 0x00000000)  returns 0x00 (0000ms, 0364ms total)
T1754 000:669 JLINK_WriteReg(R11, 0x00000000)  returns 0x00 (0000ms, 0364ms total)
T1754 000:669 JLINK_WriteReg(R12, 0x00000000)  returns 0x00 (0000ms, 0364ms total)
T1754 000:669 JLINK_WriteReg(R13, 0x20000800)  returns 0x00 (0000ms, 0364ms total)
T1754 000:669 JLINK_WriteReg(R14, 0x20000001)  returns 0x00 (0000ms, 0364ms total)
T1754 000:669 JLINK_WriteReg(R15, 0x20000020)  returns 0x00 (0000ms, 0364ms total)
T1754 000:669 JLINK_WriteReg(XPSR, 0x01000000)  returns 0x00 (0000ms, 0364ms total)
T1754 000:669 JLINK_WriteReg(MSP, 0x20000800)  returns 0x00 (0000ms, 0364ms total)
T1754 000:669 JLINK_WriteReg(PSP, 0x20000800)  returns 0x00 (0000ms, 0364ms total)
T1754 000:669 JLINK_WriteReg(CFBP, 0x00000000)  returns 0x00 (0000ms, 0364ms total)
T1754 000:669 JLINK_SetBPEx(Addr = 0x20000000, Type = 0xFFFFFFF2)  returns 0x00000006 (0000ms, 0364ms total)
T1754 000:669 JLINK_Go() (0008ms, 0372ms total)
T1754 000:677 JLINK_IsHalted()  returns FALSE (0002ms, 0374ms total)
T1754 000:680 JLINK_IsHalted()  returns FALSE (0002ms, 0374ms total)
T1754 000:683 JLINK_IsHalted()  returns FALSE (0003ms, 0375ms total)
T1754 000:687 JLINK_IsHalted()  returns FALSE (0002ms, 0374ms total)
T1754 000:690 JLINK_IsHalted()  returns FALSE (0002ms, 0374ms total)
T1754 000:693 JLINK_IsHalted()  returns FALSE (0002ms, 0374ms total)
T1754 000:696 JLINK_IsHalted()  returns FALSE (0002ms, 0374ms total)
T1754 000:699 JLINK_IsHalted()  returns FALSE (0002ms, 0374ms total)
T1754 000:702 JLINK_IsHalted()  returns FALSE (0002ms, 0374ms total)
T1754 000:705 JLINK_IsHalted()  returns FALSE (0002ms, 0374ms total)
T1754 000:708 JLINK_IsHalted()  returns FALSE (0002ms, 0374ms total)
T1754 000:711 JLINK_IsHalted()  returns FALSE (0002ms, 0374ms total)
T1754 000:714 JLINK_IsHalted()  returns FALSE (0002ms, 0374ms total)
T1754 000:717 JLINK_IsHalted()  returns FALSE (0002ms, 0374ms total)
T1754 000:720 JLINK_IsHalted()  returns FALSE (0002ms, 0374ms total)
T1754 000:723 JLINK_IsHalted()  returns FALSE (0002ms, 0374ms total)
T1754 000:726 JLINK_IsHalted()  returns FALSE (0002ms, 0374ms total)
T1754 000:729 JLINK_IsHalted()  returns FALSE (0002ms, 0374ms total)
T1754 000:755 JLINK_IsHalted() -- CPU_ReadMem(2 bytes @ 0x20000000)  returns TRUE (0021ms, 0393ms total)
T1754 000:776 JLINK_ReadReg(R15)  returns 0x20000000 (0000ms, 0372ms total)
T1754 000:776 JLINK_ClrBPEx(BPHandle = 0x00000006)  returns 0x00 (0000ms, 0372ms total)
T1754 000:776 JLINK_ReadReg(R0)  returns 0x00000000 (0000ms, 0372ms total)
T1754 000:776 JLINK_WriteReg(R0, 0x00000001)  returns 0x00 (0000ms, 0372ms total)
T1754 000:776 JLINK_WriteReg(R1, 0x00010000)  returns 0x00 (0000ms, 0372ms total)
T1754 000:776 JLINK_WriteReg(R2, 0x000000FF)  returns 0x00 (0001ms, 0373ms total)
T1754 000:777 JLINK_WriteReg(R3, 0x00000000)  returns 0x00 (0000ms, 0373ms total)
T1754 000:777 JLINK_WriteReg(R4, 0x00000000)  returns 0x00 (0000ms, 0373ms total)
T1754 000:777 JLINK_WriteReg(R5, 0x00000000)  returns 0x00 (0000ms, 0373ms total)
T1754 000:777 JLINK_WriteReg(R6, 0x00000000)  returns 0x00 (0000ms, 0373ms total)
T1754 000:777 JLINK_WriteReg(R7, 0x00000000)  returns 0x00 (0000ms, 0373ms total)
T1754 000:777 JLINK_WriteReg(R8, 0x00000000)  returns 0x00 (0000ms, 0373ms total)
T1754 000:777 JLINK_WriteReg(R9, 0x2000017C)  returns 0x00 (0000ms, 0373ms total)
T1754 000:777 JLINK_WriteReg(R10, 0x00000000)  returns 0x00 (0000ms, 0373ms total)
T1754 000:777 JLINK_WriteReg(R11, 0x00000000)  returns 0x00 (0000ms, 0373ms total)
T1754 000:777 JLINK_WriteReg(R12, 0x00000000)  returns 0x00 (0000ms, 0373ms total)
T1754 000:777 JLINK_WriteReg(R13, 0x20000800)  returns 0x00 (0000ms, 0373ms total)
T1754 000:777 JLINK_WriteReg(R14, 0x20000001)  returns 0x00 (0000ms, 0373ms total)
T1754 000:777 JLINK_WriteReg(R15, 0x20000082)  returns 0x00 (0000ms, 0373ms total)
T1754 000:777 JLINK_WriteReg(XPSR, 0x01000000)  returns 0x00 (0000ms, 0373ms total)
T1754 000:777 JLINK_WriteReg(MSP, 0x20000800)  returns 0x00 (0000ms, 0373ms total)
T1754 000:777 JLINK_WriteReg(PSP, 0x20000800)  returns 0x00 (0000ms, 0373ms total)
T1754 000:777 JLINK_WriteReg(CFBP, 0x00000000)  returns 0x00 (0000ms, 0373ms total)
T1754 000:777 JLINK_SetBPEx(Addr = 0x20000000, Type = 0xFFFFFFF2)  returns 0x00000007 (0000ms, 0373ms total)
T1754 000:777 JLINK_Go() (0007ms, 0380ms total)
T1754 000:784 JLINK_IsHalted() -- CPU_ReadMem(2 bytes @ 0x20000000)  returns TRUE (0021ms, 0401ms total)
T1754 000:805 JLINK_ReadReg(R15)  returns 0x20000000 (0000ms, 0380ms total)
T1754 000:805 JLINK_ClrBPEx(BPHandle = 0x00000007)  returns 0x00 (0000ms, 0380ms total)
T1754 000:805 JLINK_ReadReg(R0)  returns 0x00000000 (0000ms, 0380ms total)
T1754 000:862 JLINK_WriteMem(0x20000000, 0x0180 Bytes, ...) -- Data:  00 BE 0A E0 0D 78 2D 06 68 40 08 24 40 00 00 D3 ... -- CPU_WriteMem(384 bytes @ 0x20000000)  returns 0x180 (0026ms, 0406ms total)
T1754 000:888 JLINK_WriteReg(R0, 0x08000000)  returns 0x00 (0000ms, 0406ms total)
T1754 000:888 JLINK_WriteReg(R1, 0x017D7840)  returns 0x00 (0000ms, 0406ms total)
T1754 000:888 JLINK_WriteReg(R2, 0x00000002)  returns 0x00 (0000ms, 0406ms total)
T1754 000:888 JLINK_WriteReg(R3, 0x00000000)  returns 0x00 (0000ms, 0406ms total)
T1754 000:888 JLINK_WriteReg(R4, 0x00000000)  returns 0x00 (0000ms, 0406ms total)
T1754 000:888 JLINK_WriteReg(R5, 0x00000000)  returns 0x00 (0000ms, 0406ms total)
T1754 000:888 JLINK_WriteReg(R6, 0x00000000)  returns 0x00 (0000ms, 0406ms total)
T1754 000:888 JLINK_WriteReg(R7, 0x00000000)  returns 0x00 (0000ms, 0406ms total)
T1754 000:888 JLINK_WriteReg(R8, 0x00000000)  returns 0x00 (0000ms, 0406ms total)
T1754 000:888 JLINK_WriteReg(R9, 0x2000017C)  returns 0x00 (0000ms, 0406ms total)
T1754 000:888 JLINK_WriteReg(R10, 0x00000000)  returns 0x00 (0000ms, 0406ms total)
T1754 000:888 JLINK_WriteReg(R11, 0x00000000)  returns 0x00 (0000ms, 0406ms total)
T1754 000:888 JLINK_WriteReg(R12, 0x00000000)  returns 0x00 (0000ms, 0406ms total)
T1754 000:888 JLINK_WriteReg(R13, 0x20000800)  returns 0x00 (0000ms, 0406ms total)
T1754 000:888 JLINK_WriteReg(R14, 0x20000001)  returns 0x00 (0000ms, 0406ms total)
T1754 000:888 JLINK_WriteReg(R15, 0x20000054)  returns 0x00 (0000ms, 0406ms total)
T1754 000:888 JLINK_WriteReg(XPSR, 0x01000000)  returns 0x00 (0001ms, 0407ms total)
T1754 000:889 JLINK_WriteReg(MSP, 0x20000800)  returns 0x00 (0000ms, 0407ms total)
T1754 000:889 JLINK_WriteReg(PSP, 0x20000800)  returns 0x00 (0000ms, 0407ms total)
T1754 000:889 JLINK_WriteReg(CFBP, 0x00000000)  returns 0x00 (0000ms, 0407ms total)
T1754 000:889 JLINK_SetBPEx(Addr = 0x20000000, Type = 0xFFFFFFF2) -- CPU_ReadMem(2 bytes @ 0x20000000)  returns 0x00000008 (0002ms, 0409ms total)
T1754 000:891 JLINK_Go() -- CPU_WriteMem(2 bytes @ 0x20000000) (0009ms, 0418ms total)
T1754 000:900 JLINK_IsHalted() -- CPU_ReadMem(2 bytes @ 0x20000000)  returns TRUE (0021ms, 0439ms total)
T1754 000:921 JLINK_ReadReg(R15)  returns 0x20000000 (0000ms, 0418ms total)
T1754 000:921 JLINK_ClrBPEx(BPHandle = 0x00000008)  returns 0x00 (0000ms, 0418ms total)
T1754 000:921 JLINK_ReadReg(R0)  returns 0x00000000 (0000ms, 0418ms total)
T1754 000:922 JLINK_WriteMem(0x20000180, 0x0400 Bytes, ...) -- Data:  C8 8B 00 20 69 02 00 08 87 7B 00 08 CD 68 00 08 ... -- CPU_WriteMem(1024 bytes @ 0x20000180)  returns 0x400 (0064ms, 0482ms total)
T1754 000:986 JLINK_WriteReg(R0, 0x08000000)  returns 0x00 (0000ms, 0482ms total)
T1754 000:986 JLINK_WriteReg(R1, 0x00000400)  returns 0x00 (0000ms, 0482ms total)
T1754 000:986 JLINK_WriteReg(R2, 0x20000180)  returns 0x00 (0000ms, 0482ms total)
T1754 000:986 JLINK_WriteReg(R3, 0x00000000)  returns 0x00 (0000ms, 0482ms total)
T1754 000:986 JLINK_WriteReg(R4, 0x00000000)  returns 0x00 (0000ms, 0482ms total)
T1754 000:986 JLINK_WriteReg(R5, 0x00000000)  returns 0x00 (0000ms, 0482ms total)
T1754 000:986 JLINK_WriteReg(R6, 0x00000000)  returns 0x00 (0000ms, 0482ms total)
T1754 000:987 JLINK_WriteReg(R7, 0x00000000)  returns 0x00 (0000ms, 0483ms total)
T1754 000:987 JLINK_WriteReg(R8, 0x00000000)  returns 0x00 (0000ms, 0483ms total)
T1754 000:987 JLINK_WriteReg(R9, 0x2000017C)  returns 0x00 (0000ms, 0483ms total)
T1754 000:987 JLINK_WriteReg(R10, 0x00000000)  returns 0x00 (0000ms, 0483ms total)
T1754 000:987 JLINK_WriteReg(R11, 0x00000000)  returns 0x00 (0000ms, 0483ms total)
T1754 000:987 JLINK_WriteReg(R12, 0x00000000)  returns 0x00 (0000ms, 0483ms total)
T1754 000:987 JLINK_WriteReg(R13, 0x20000800)  returns 0x00 (0000ms, 0483ms total)
T1754 000:987 JLINK_WriteReg(R14, 0x20000001)  returns 0x00 (0000ms, 0483ms total)
T1754 000:987 JLINK_WriteReg(R15, 0x20000108)  returns 0x00 (0000ms, 0483ms total)
T1754 000:987 JLINK_WriteReg(XPSR, 0x01000000)  returns 0x00 (0000ms, 0483ms total)
T1754 000:987 JLINK_WriteReg(MSP, 0x20000800)  returns 0x00 (0000ms, 0483ms total)
T1754 000:987 JLINK_WriteReg(PSP, 0x20000800)  returns 0x00 (0000ms, 0483ms total)
T1754 000:987 JLINK_WriteReg(CFBP, 0x00000000)  returns 0x00 (0000ms, 0483ms total)
T1754 000:987 JLINK_SetBPEx(Addr = 0x20000000, Type = 0xFFFFFFF2)  returns 0x00000009 (0000ms, 0483ms total)
T1754 000:987 JLINK_Go() (0007ms, 0490ms total)
T1754 000:995 JLINK_IsHalted()  returns FALSE (0002ms, 0492ms total)
T1754 001:029 JLINK_IsHalted() -- CPU_ReadMem(2 bytes @ 0x20000000)  returns TRUE (0022ms, 0512ms total)
T1754 001:051 JLINK_ReadReg(R15)  returns 0x20000000 (0000ms, 0490ms total)
T1754 001:051 JLINK_ClrBPEx(BPHandle = 0x00000009)  returns 0x00 (0000ms, 0490ms total)
T1754 001:051 JLINK_ReadReg(R0)  returns 0x00000000 (0000ms, 0490ms total)
T1754 001:051 JLINK_WriteMem(0x20000180, 0x0400 Bytes, ...) -- Data:  40 F8 04 CD FF F7 F3 BF 12 1D 5C BF 51 F8 04 3D ... -- CPU_WriteMem(1024 bytes @ 0x20000180)  returns 0x400 (0065ms, 0555ms total)
T1754 001:116 JLINK_WriteReg(R0, 0x08000400)  returns 0x00 (0000ms, 0555ms total)
T1754 001:116 JLINK_WriteReg(R1, 0x00000400)  returns 0x00 (0000ms, 0555ms total)
T1754 001:116 JLINK_WriteReg(R2, 0x20000180)  returns 0x00 (0000ms, 0555ms total)
T1754 001:116 JLINK_WriteReg(R3, 0x00000000)  returns 0x00 (0000ms, 0555ms total)
T1754 001:116 JLINK_WriteReg(R4, 0x00000000)  returns 0x00 (0000ms, 0555ms total)
T1754 001:116 JLINK_WriteReg(R5, 0x00000000)  returns 0x00 (0000ms, 0555ms total)
T1754 001:116 JLINK_WriteReg(R6, 0x00000000)  returns 0x00 (0000ms, 0555ms total)
T1754 001:116 JLINK_WriteReg(R7, 0x00000000)  returns 0x00 (0000ms, 0555ms total)
T1754 001:116 JLINK_WriteReg(R8, 0x00000000)  returns 0x00 (0000ms, 0555ms total)
T1754 001:116 JLINK_WriteReg(R9, 0x2000017C)  returns 0x00 (0000ms, 0555ms total)
T1754 001:116 JLINK_WriteReg(R10, 0x00000000)  returns 0x00 (0000ms, 0555ms total)
T1754 001:116 JLINK_WriteReg(R11, 0x00000000)  returns 0x00 (0000ms, 0555ms total)
T1754 001:116 JLINK_WriteReg(R12, 0x00000000)  returns 0x00 (0000ms, 0555ms total)
T1754 001:116 JLINK_WriteReg(R13, 0x20000800)  returns 0x00 (0000ms, 0555ms total)
T1754 001:116 JLINK_WriteReg(R14, 0x20000001)  returns 0x00 (0000ms, 0555ms total)
T1754 001:116 JLINK_WriteReg(R15, 0x20000108)  returns 0x00 (0000ms, 0555ms total)
T1754 001:116 JLINK_WriteReg(XPSR, 0x01000000)  returns 0x00 (0000ms, 0555ms total)
T1754 001:116 JLINK_WriteReg(MSP, 0x20000800)  returns 0x00 (0000ms, 0555ms total)
T1754 001:116 JLINK_WriteReg(PSP, 0x20000800)  returns 0x00 (0000ms, 0555ms total)
T1754 001:116 JLINK_WriteReg(CFBP, 0x00000000)  returns 0x00 (0000ms, 0555ms total)
T1754 001:116 JLINK_SetBPEx(Addr = 0x20000000, Type = 0xFFFFFFF2)  returns 0x0000000A (0000ms, 0555ms total)
T1754 001:116 JLINK_Go() (0008ms, 0563ms total)
T1754 001:124 JLINK_IsHalted()  returns FALSE (0002ms, 0565ms total)
T1754 001:151 JLINK_IsHalted() -- CPU_ReadMem(2 bytes @ 0x20000000)  returns TRUE (0021ms, 0584ms total)
T1754 001:172 JLINK_ReadReg(R15)  returns 0x20000000 (0000ms, 0563ms total)
T1754 001:172 JLINK_ClrBPEx(BPHandle = 0x0000000A)  returns 0x00 (0000ms, 0563ms total)
T1754 001:172 JLINK_ReadReg(R0)  returns 0x00000000 (0000ms, 0563ms total)
T1754 001:173 JLINK_WriteMem(0x20000180, 0x0400 Bytes, ...) -- Data:  14 00 34 F8 10 00 04 99 08 44 04 90 9D F8 14 00 ... -- CPU_WriteMem(1024 bytes @ 0x20000180)  returns 0x400 (0064ms, 0627ms total)
T1754 001:237 JLINK_WriteReg(R0, 0x08000800)  returns 0x00 (0000ms, 0627ms total)
T1754 001:237 JLINK_WriteReg(R1, 0x00000400)  returns 0x00 (0000ms, 0627ms total)
T1754 001:237 JLINK_WriteReg(R2, 0x20000180)  returns 0x00 (0000ms, 0627ms total)
T1754 001:237 JLINK_WriteReg(R3, 0x00000000)  returns 0x00 (0000ms, 0627ms total)
T1754 001:237 JLINK_WriteReg(R4, 0x00000000)  returns 0x00 (0000ms, 0627ms total)
T1754 001:237 JLINK_WriteReg(R5, 0x00000000)  returns 0x00 (0000ms, 0627ms total)
T1754 001:237 JLINK_WriteReg(R6, 0x00000000)  returns 0x00 (0001ms, 0628ms total)
T1754 001:238 JLINK_WriteReg(R7, 0x00000000)  returns 0x00 (0000ms, 0628ms total)
T1754 001:238 JLINK_WriteReg(R8, 0x00000000)  returns 0x00 (0000ms, 0628ms total)
T1754 001:238 JLINK_WriteReg(R9, 0x2000017C)  returns 0x00 (0000ms, 0628ms total)
T1754 001:238 JLINK_WriteReg(R10, 0x00000000)  returns 0x00 (0000ms, 0628ms total)
T1754 001:238 JLINK_WriteReg(R11, 0x00000000)  returns 0x00 (0000ms, 0628ms total)
T1754 001:238 JLINK_WriteReg(R12, 0x00000000)  returns 0x00 (0000ms, 0628ms total)
T1754 001:238 JLINK_WriteReg(R13, 0x20000800)  returns 0x00 (0000ms, 0628ms total)
T1754 001:238 JLINK_WriteReg(R14, 0x20000001)  returns 0x00 (0000ms, 0628ms total)
T1754 001:238 JLINK_WriteReg(R15, 0x20000108)  returns 0x00 (0000ms, 0628ms total)
T1754 001:238 JLINK_WriteReg(XPSR, 0x01000000)  returns 0x00 (0000ms, 0628ms total)
T1754 001:238 JLINK_WriteReg(MSP, 0x20000800)  returns 0x00 (0000ms, 0628ms total)
T1754 001:238 JLINK_WriteReg(PSP, 0x20000800)  returns 0x00 (0000ms, 0628ms total)
T1754 001:238 JLINK_WriteReg(CFBP, 0x00000000)  returns 0x00 (0000ms, 0628ms total)
T1754 001:238 JLINK_SetBPEx(Addr = 0x20000000, Type = 0xFFFFFFF2)  returns 0x0000000B (0000ms, 0628ms total)
T1754 001:238 JLINK_Go() (0008ms, 0636ms total)
T1754 001:246 JLINK_IsHalted()  returns FALSE (0002ms, 0638ms total)
T1754 001:272 JLINK_IsHalted() -- CPU_ReadMem(2 bytes @ 0x20000000)  returns TRUE (0023ms, 0659ms total)
T1754 001:295 JLINK_ReadReg(R15)  returns 0x20000000 (0000ms, 0636ms total)
T1754 001:295 JLINK_ClrBPEx(BPHandle = 0x0000000B)  returns 0x00 (0000ms, 0636ms total)
T1754 001:295 JLINK_ReadReg(R0)  returns 0x00000000 (0000ms, 0636ms total)
T1754 001:295 JLINK_WriteMem(0x20000180, 0x0400 Bytes, ...) -- Data:  70 B5 07 26 09 29 0A D9 C5 68 A1 F1 0A 04 04 EB ... -- CPU_WriteMem(1024 bytes @ 0x20000180)  returns 0x400 (0065ms, 0701ms total)
T1754 001:360 JLINK_WriteReg(R0, 0x08000C00)  returns 0x00 (0000ms, 0701ms total)
T1754 001:360 JLINK_WriteReg(R1, 0x00000400)  returns 0x00 (0000ms, 0701ms total)
T1754 001:360 JLINK_WriteReg(R2, 0x20000180)  returns 0x00 (0000ms, 0701ms total)
T1754 001:360 JLINK_WriteReg(R3, 0x00000000)  returns 0x00 (0000ms, 0701ms total)
T1754 001:360 JLINK_WriteReg(R4, 0x00000000)  returns 0x00 (0000ms, 0701ms total)
T1754 001:360 JLINK_WriteReg(R5, 0x00000000)  returns 0x00 (0000ms, 0701ms total)
T1754 001:360 JLINK_WriteReg(R6, 0x00000000)  returns 0x00 (0000ms, 0701ms total)
T1754 001:360 JLINK_WriteReg(R7, 0x00000000)  returns 0x00 (0000ms, 0701ms total)
T1754 001:360 JLINK_WriteReg(R8, 0x00000000)  returns 0x00 (0000ms, 0701ms total)
T1754 001:360 JLINK_WriteReg(R9, 0x2000017C)  returns 0x00 (0000ms, 0701ms total)
T1754 001:360 JLINK_WriteReg(R10, 0x00000000)  returns 0x00 (0000ms, 0701ms total)
T1754 001:360 JLINK_WriteReg(R11, 0x00000000)  returns 0x00 (0000ms, 0701ms total)
T1754 001:360 JLINK_WriteReg(R12, 0x00000000)  returns 0x00 (0000ms, 0701ms total)
T1754 001:360 JLINK_WriteReg(R13, 0x20000800)  returns 0x00 (0000ms, 0701ms total)
T1754 001:360 JLINK_WriteReg(R14, 0x20000001)  returns 0x00 (0000ms, 0701ms total)
T1754 001:360 JLINK_WriteReg(R15, 0x20000108)  returns 0x00 (0000ms, 0701ms total)
T1754 001:360 JLINK_WriteReg(XPSR, 0x01000000)  returns 0x00 (0000ms, 0701ms total)
T1754 001:360 JLINK_WriteReg(MSP, 0x20000800)  returns 0x00 (0000ms, 0701ms total)
T1754 001:360 JLINK_WriteReg(PSP, 0x20000800)  returns 0x00 (0000ms, 0701ms total)
T1754 001:360 JLINK_WriteReg(CFBP, 0x00000000)  returns 0x00 (0000ms, 0701ms total)
T1754 001:360 JLINK_SetBPEx(Addr = 0x20000000, Type = 0xFFFFFFF2)  returns 0x0000000C (0000ms, 0701ms total)
T1754 001:360 JLINK_Go() (0009ms, 0710ms total)
T1754 001:369 JLINK_IsHalted()  returns FALSE (0002ms, 0712ms total)
T1754 001:409 JLINK_IsHalted() -- CPU_ReadMem(2 bytes @ 0x20000000)  returns TRUE (0021ms, 0731ms total)
T1754 001:430 JLINK_ReadReg(R15)  returns 0x20000000 (0000ms, 0710ms total)
T1754 001:430 JLINK_ClrBPEx(BPHandle = 0x0000000C)  returns 0x00 (0000ms, 0710ms total)
T1754 001:430 JLINK_ReadReg(R0)  returns 0x00000000 (0000ms, 0710ms total)
T1754 001:431 JLINK_WriteMem(0x20000180, 0x0400 Bytes, ...) -- Data:  A1 68 D1 B3 03 29 42 D0 5F F0 00 01 00 EB 81 01 ... -- CPU_WriteMem(1024 bytes @ 0x20000180)  returns 0x400 (0064ms, 0774ms total)
T1754 001:495 JLINK_WriteReg(R0, 0x08001000)  returns 0x00 (0000ms, 0774ms total)
T1754 001:495 JLINK_WriteReg(R1, 0x00000400)  returns 0x00 (0000ms, 0774ms total)
T1754 001:495 JLINK_WriteReg(R2, 0x20000180)  returns 0x00 (0000ms, 0774ms total)
T1754 001:495 JLINK_WriteReg(R3, 0x00000000)  returns 0x00 (0000ms, 0774ms total)
T1754 001:495 JLINK_WriteReg(R4, 0x00000000)  returns 0x00 (0001ms, 0775ms total)
T1754 001:496 JLINK_WriteReg(R5, 0x00000000)  returns 0x00 (0000ms, 0775ms total)
T1754 001:496 JLINK_WriteReg(R6, 0x00000000)  returns 0x00 (0000ms, 0775ms total)
T1754 001:496 JLINK_WriteReg(R7, 0x00000000)  returns 0x00 (0000ms, 0775ms total)
T1754 001:496 JLINK_WriteReg(R8, 0x00000000)  returns 0x00 (0000ms, 0775ms total)
T1754 001:496 JLINK_WriteReg(R9, 0x2000017C)  returns 0x00 (0000ms, 0775ms total)
T1754 001:496 JLINK_WriteReg(R10, 0x00000000)  returns 0x00 (0000ms, 0775ms total)
T1754 001:496 JLINK_WriteReg(R11, 0x00000000)  returns 0x00 (0000ms, 0775ms total)
T1754 001:496 JLINK_WriteReg(R12, 0x00000000)  returns 0x00 (0000ms, 0775ms total)
T1754 001:496 JLINK_WriteReg(R13, 0x20000800)  returns 0x00 (0000ms, 0775ms total)
T1754 001:496 JLINK_WriteReg(R14, 0x20000001)  returns 0x00 (0000ms, 0775ms total)
T1754 001:496 JLINK_WriteReg(R15, 0x20000108)  returns 0x00 (0000ms, 0775ms total)
T1754 001:496 JLINK_WriteReg(XPSR, 0x01000000)  returns 0x00 (0000ms, 0775ms total)
T1754 001:496 JLINK_WriteReg(MSP, 0x20000800)  returns 0x00 (0000ms, 0775ms total)
T1754 001:496 JLINK_WriteReg(PSP, 0x20000800)  returns 0x00 (0000ms, 0775ms total)
T1754 001:496 JLINK_WriteReg(CFBP, 0x00000000)  returns 0x00 (0000ms, 0775ms total)
T1754 001:496 JLINK_SetBPEx(Addr = 0x20000000, Type = 0xFFFFFFF2)  returns 0x0000000D (0000ms, 0775ms total)
T1754 001:496 JLINK_Go() (0008ms, 0783ms total)
T1754 001:504 JLINK_IsHalted()  returns FALSE (0002ms, 0785ms total)
T1754 001:534 JLINK_IsHalted() -- CPU_ReadMem(2 bytes @ 0x20000000)  returns TRUE (0021ms, 0804ms total)
T1754 001:555 JLINK_ReadReg(R15)  returns 0x20000000 (0000ms, 0783ms total)
T1754 001:555 JLINK_ClrBPEx(BPHandle = 0x0000000D)  returns 0x00 (0000ms, 0783ms total)
T1754 001:555 JLINK_ReadReg(R0)  returns 0x00000000 (0000ms, 0783ms total)
T1754 001:556 JLINK_WriteMem(0x20000180, 0x0400 Bytes, ...) -- Data:  01 F0 77 FF 08 21 28 46 01 F0 73 FF 00 BF 00 BF ... -- CPU_WriteMem(1024 bytes @ 0x20000180)  returns 0x400 (0065ms, 0848ms total)
T1754 001:621 JLINK_WriteReg(R0, 0x08001400)  returns 0x00 (0000ms, 0848ms total)
T1754 001:621 JLINK_WriteReg(R1, 0x00000400)  returns 0x00 (0000ms, 0848ms total)
T1754 001:621 JLINK_WriteReg(R2, 0x20000180)  returns 0x00 (0000ms, 0848ms total)
T1754 001:621 JLINK_WriteReg(R3, 0x00000000)  returns 0x00 (0000ms, 0848ms total)
T1754 001:621 JLINK_WriteReg(R4, 0x00000000)  returns 0x00 (0000ms, 0848ms total)
T1754 001:621 JLINK_WriteReg(R5, 0x00000000)  returns 0x00 (0000ms, 0848ms total)
T1754 001:621 JLINK_WriteReg(R6, 0x00000000)  returns 0x00 (0000ms, 0848ms total)
T1754 001:621 JLINK_WriteReg(R7, 0x00000000)  returns 0x00 (0000ms, 0848ms total)
T1754 001:621 JLINK_WriteReg(R8, 0x00000000)  returns 0x00 (0000ms, 0848ms total)
T1754 001:621 JLINK_WriteReg(R9, 0x2000017C)  returns 0x00 (0000ms, 0848ms total)
T1754 001:621 JLINK_WriteReg(R10, 0x00000000)  returns 0x00 (0000ms, 0848ms total)
T1754 001:621 JLINK_WriteReg(R11, 0x00000000)  returns 0x00 (0000ms, 0848ms total)
T1754 001:621 JLINK_WriteReg(R12, 0x00000000)  returns 0x00 (0000ms, 0848ms total)
T1754 001:621 JLINK_WriteReg(R13, 0x20000800)  returns 0x00 (0000ms, 0848ms total)
T1754 001:621 JLINK_WriteReg(R14, 0x20000001)  returns 0x00 (0000ms, 0848ms total)
T1754 001:621 JLINK_WriteReg(R15, 0x20000108)  returns 0x00 (0000ms, 0848ms total)
T1754 001:621 JLINK_WriteReg(XPSR, 0x01000000)  returns 0x00 (0000ms, 0848ms total)
T1754 001:621 JLINK_WriteReg(MSP, 0x20000800)  returns 0x00 (0000ms, 0848ms total)
T1754 001:621 JLINK_WriteReg(PSP, 0x20000800)  returns 0x00 (0000ms, 0848ms total)
T1754 001:621 JLINK_WriteReg(CFBP, 0x00000000)  returns 0x00 (0000ms, 0848ms total)
T1754 001:621 JLINK_SetBPEx(Addr = 0x20000000, Type = 0xFFFFFFF2)  returns 0x0000000E (0000ms, 0848ms total)
T1754 001:621 JLINK_Go() (0009ms, 0857ms total)
T1754 001:630 JLINK_IsHalted()  returns FALSE (0002ms, 0859ms total)
T1754 001:657 JLINK_IsHalted() -- CPU_ReadMem(2 bytes @ 0x20000000)  returns TRUE (0021ms, 0878ms total)
T1754 001:678 JLINK_ReadReg(R15)  returns 0x20000000 (0000ms, 0857ms total)
T1754 001:678 JLINK_ClrBPEx(BPHandle = 0x0000000E)  returns 0x00 (0000ms, 0857ms total)
T1754 001:678 JLINK_ReadReg(R0)  returns 0x00000000 (0000ms, 0857ms total)
T1754 001:679 JLINK_WriteMem(0x20000180, 0x0400 Bytes, ...) -- Data:  60 60 11 20 FF F7 52 FF A8 60 A8 68 00 02 A8 60 ... -- CPU_WriteMem(1024 bytes @ 0x20000180)  returns 0x400 (0065ms, 0922ms total)
T1754 001:744 JLINK_WriteReg(R0, 0x08001800)  returns 0x00 (0000ms, 0922ms total)
T1754 001:744 JLINK_WriteReg(R1, 0x00000400)  returns 0x00 (0000ms, 0922ms total)
T1754 001:744 JLINK_WriteReg(R2, 0x20000180)  returns 0x00 (0000ms, 0922ms total)
T1754 001:744 JLINK_WriteReg(R3, 0x00000000)  returns 0x00 (0000ms, 0922ms total)
T1754 001:744 JLINK_WriteReg(R4, 0x00000000)  returns 0x00 (0000ms, 0922ms total)
T1754 001:744 JLINK_WriteReg(R5, 0x00000000)  returns 0x00 (0000ms, 0922ms total)
T1754 001:744 JLINK_WriteReg(R6, 0x00000000)  returns 0x00 (0000ms, 0922ms total)
T1754 001:744 JLINK_WriteReg(R7, 0x00000000)  returns 0x00 (0000ms, 0922ms total)
T1754 001:744 JLINK_WriteReg(R8, 0x00000000)  returns 0x00 (0000ms, 0922ms total)
T1754 001:744 JLINK_WriteReg(R9, 0x2000017C)  returns 0x00 (0000ms, 0922ms total)
T1754 001:744 JLINK_WriteReg(R10, 0x00000000)  returns 0x00 (0000ms, 0922ms total)
T1754 001:744 JLINK_WriteReg(R11, 0x00000000)  returns 0x00 (0000ms, 0922ms total)
T1754 001:744 JLINK_WriteReg(R12, 0x00000000)  returns 0x00 (0000ms, 0922ms total)
T1754 001:744 JLINK_WriteReg(R13, 0x20000800)  returns 0x00 (0000ms, 0922ms total)
T1754 001:744 JLINK_WriteReg(R14, 0x20000001)  returns 0x00 (0000ms, 0922ms total)
T1754 001:744 JLINK_WriteReg(R15, 0x20000108)  returns 0x00 (0000ms, 0922ms total)
T1754 001:744 JLINK_WriteReg(XPSR, 0x01000000)  returns 0x00 (0000ms, 0922ms total)
T1754 001:744 JLINK_WriteReg(MSP, 0x20000800)  returns 0x00 (0000ms, 0922ms total)
T1754 001:744 JLINK_WriteReg(PSP, 0x20000800)  returns 0x00 (0000ms, 0922ms total)
T1754 001:744 JLINK_WriteReg(CFBP, 0x00000000)  returns 0x00 (0000ms, 0922ms total)
T1754 001:744 JLINK_SetBPEx(Addr = 0x20000000, Type = 0xFFFFFFF2)  returns 0x0000000F (0000ms, 0922ms total)
T1754 001:744 JLINK_Go() (0008ms, 0930ms total)
T1754 001:752 JLINK_IsHalted()  returns FALSE (0003ms, 0933ms total)
T1754 001:779 JLINK_IsHalted() -- CPU_ReadMem(2 bytes @ 0x20000000)  returns TRUE (0021ms, 0951ms total)
T1754 001:800 JLINK_ReadReg(R15)  returns 0x20000000 (0000ms, 0930ms total)
T1754 001:800 JLINK_ClrBPEx(BPHandle = 0x0000000F)  returns 0x00 (0000ms, 0930ms total)
T1754 001:800 JLINK_ReadReg(R0)  returns 0x00000000 (0000ms, 0930ms total)
T1754 001:800 JLINK_WriteMem(0x20000180, 0x0400 Bytes, ...) -- Data:  69 6A 08 44 68 62 68 6A 00 02 68 62 4B 20 FF F7 ... -- CPU_WriteMem(1024 bytes @ 0x20000180)  returns 0x400 (0065ms, 0995ms total)
T1754 001:865 JLINK_WriteReg(R0, 0x08001C00)  returns 0x00 (0000ms, 0995ms total)
T1754 001:865 JLINK_WriteReg(R1, 0x00000400)  returns 0x00 (0000ms, 0995ms total)
T1754 001:865 JLINK_WriteReg(R2, 0x20000180)  returns 0x00 (0000ms, 0995ms total)
T1754 001:865 JLINK_WriteReg(R3, 0x00000000)  returns 0x00 (0000ms, 0995ms total)
T1754 001:865 JLINK_WriteReg(R4, 0x00000000)  returns 0x00 (0000ms, 0995ms total)
T1754 001:865 JLINK_WriteReg(R5, 0x00000000)  returns 0x00 (0000ms, 0995ms total)
T1754 001:865 JLINK_WriteReg(R6, 0x00000000)  returns 0x00 (0000ms, 0995ms total)
T1754 001:865 JLINK_WriteReg(R7, 0x00000000)  returns 0x00 (0000ms, 0995ms total)
T1754 001:865 JLINK_WriteReg(R8, 0x00000000)  returns 0x00 (0000ms, 0995ms total)
T1754 001:865 JLINK_WriteReg(R9, 0x2000017C)  returns 0x00 (0000ms, 0995ms total)
T1754 001:865 JLINK_WriteReg(R10, 0x00000000)  returns 0x00 (0000ms, 0995ms total)
T1754 001:865 JLINK_WriteReg(R11, 0x00000000)  returns 0x00 (0000ms, 0995ms total)
T1754 001:865 JLINK_WriteReg(R12, 0x00000000)  returns 0x00 (0000ms, 0995ms total)
T1754 001:865 JLINK_WriteReg(R13, 0x20000800)  returns 0x00 (0000ms, 0995ms total)
T1754 001:865 JLINK_WriteReg(R14, 0x20000001)  returns 0x00 (0000ms, 0995ms total)
T1754 001:865 JLINK_WriteReg(R15, 0x20000108)  returns 0x00 (0000ms, 0995ms total)
T1754 001:865 JLINK_WriteReg(XPSR, 0x01000000)  returns 0x00 (0001ms, 0996ms total)
T1754 001:866 JLINK_WriteReg(MSP, 0x20000800)  returns 0x00 (0000ms, 0996ms total)
T1754 001:866 JLINK_WriteReg(PSP, 0x20000800)  returns 0x00 (0000ms, 0996ms total)
T1754 001:866 JLINK_WriteReg(CFBP, 0x00000000)  returns 0x00 (0000ms, 0996ms total)
T1754 001:866 JLINK_SetBPEx(Addr = 0x20000000, Type = 0xFFFFFFF2)  returns 0x00000010 (0000ms, 0996ms total)
T1754 001:866 JLINK_Go() (0008ms, 1004ms total)
T1754 001:874 JLINK_IsHalted()  returns FALSE (0002ms, 1006ms total)
T1754 001:903 JLINK_IsHalted() -- CPU_ReadMem(2 bytes @ 0x20000000)  returns TRUE (0022ms, 1026ms total)
T1754 001:925 JLINK_ReadReg(R15)  returns 0x20000000 (0000ms, 1004ms total)
T1754 001:926 JLINK_ClrBPEx(BPHandle = 0x00000010)  returns 0x00 (0000ms, 1005ms total)
T1754 001:926 JLINK_ReadReg(R0)  returns 0x00000000 (0000ms, 1005ms total)
T1754 001:926 JLINK_WriteMem(0x20000180, 0x0400 Bytes, ...) -- Data:  A4 1E A8 68 03 F0 7C F9 23 46 42 46 39 46 30 46 ... -- CPU_WriteMem(1024 bytes @ 0x20000180)  returns 0x400 (0065ms, 1070ms total)
T1754 001:991 JLINK_WriteReg(R0, 0x08002000)  returns 0x00 (0000ms, 1070ms total)
T1754 001:991 JLINK_WriteReg(R1, 0x00000400)  returns 0x00 (0000ms, 1070ms total)
T1754 001:991 JLINK_WriteReg(R2, 0x20000180)  returns 0x00 (0000ms, 1070ms total)
T1754 001:991 JLINK_WriteReg(R3, 0x00000000)  returns 0x00 (0000ms, 1070ms total)
T1754 001:991 JLINK_WriteReg(R4, 0x00000000)  returns 0x00 (0000ms, 1070ms total)
T1754 001:991 JLINK_WriteReg(R5, 0x00000000)  returns 0x00 (0000ms, 1070ms total)
T1754 001:991 JLINK_WriteReg(R6, 0x00000000)  returns 0x00 (0000ms, 1070ms total)
T1754 001:991 JLINK_WriteReg(R7, 0x00000000)  returns 0x00 (0000ms, 1070ms total)
T1754 001:991 JLINK_WriteReg(R8, 0x00000000)  returns 0x00 (0000ms, 1070ms total)
T1754 001:991 JLINK_WriteReg(R9, 0x2000017C)  returns 0x00 (0000ms, 1070ms total)
T1754 001:991 JLINK_WriteReg(R10, 0x00000000)  returns 0x00 (0000ms, 1070ms total)
T1754 001:991 JLINK_WriteReg(R11, 0x00000000)  returns 0x00 (0000ms, 1070ms total)
T1754 001:991 JLINK_WriteReg(R12, 0x00000000)  returns 0x00 (0000ms, 1070ms total)
T1754 001:991 JLINK_WriteReg(R13, 0x20000800)  returns 0x00 (0000ms, 1070ms total)
T1754 001:991 JLINK_WriteReg(R14, 0x20000001)  returns 0x00 (0000ms, 1070ms total)
T1754 001:991 JLINK_WriteReg(R15, 0x20000108)  returns 0x00 (0000ms, 1070ms total)
T1754 001:991 JLINK_WriteReg(XPSR, 0x01000000)  returns 0x00 (0000ms, 1070ms total)
T1754 001:991 JLINK_WriteReg(MSP, 0x20000800)  returns 0x00 (0000ms, 1070ms total)
T1754 001:991 JLINK_WriteReg(PSP, 0x20000800)  returns 0x00 (0000ms, 1070ms total)
T1754 001:991 JLINK_WriteReg(CFBP, 0x00000000)  returns 0x00 (0000ms, 1070ms total)
T1754 001:991 JLINK_SetBPEx(Addr = 0x20000000, Type = 0xFFFFFFF2)  returns 0x00000011 (0001ms, 1071ms total)
T1754 001:992 JLINK_Go() (0007ms, 1078ms total)
T1754 001:999 JLINK_IsHalted()  returns FALSE (0003ms, 1081ms total)
T1754 002:028 JLINK_IsHalted() -- CPU_ReadMem(2 bytes @ 0x20000000)  returns TRUE (0021ms, 1099ms total)
T1754 002:049 JLINK_ReadReg(R15)  returns 0x20000000 (0001ms, 1079ms total)
T1754 002:050 JLINK_ClrBPEx(BPHandle = 0x00000011)  returns 0x00 (0000ms, 1079ms total)
T1754 002:050 JLINK_ReadReg(R0)  returns 0x00000000 (0000ms, 1079ms total)
T1754 002:050 JLINK_WriteMem(0x20000180, 0x0400 Bytes, ...) -- Data:  FE FF 0F 00 30 B5 D0 E9 01 12 11 43 D0 E9 03 23 ... -- CPU_WriteMem(1024 bytes @ 0x20000180)  returns 0x400 (0065ms, 1144ms total)
T1754 002:115 JLINK_WriteReg(R0, 0x08002400)  returns 0x00 (0001ms, 1145ms total)
T1754 002:116 JLINK_WriteReg(R1, 0x00000400)  returns 0x00 (0000ms, 1145ms total)
T1754 002:116 JLINK_WriteReg(R2, 0x20000180)  returns 0x00 (0000ms, 1145ms total)
T1754 002:116 JLINK_WriteReg(R3, 0x00000000)  returns 0x00 (0000ms, 1145ms total)
T1754 002:116 JLINK_WriteReg(R4, 0x00000000)  returns 0x00 (0000ms, 1145ms total)
T1754 002:116 JLINK_WriteReg(R5, 0x00000000)  returns 0x00 (0000ms, 1145ms total)
T1754 002:116 JLINK_WriteReg(R6, 0x00000000)  returns 0x00 (0000ms, 1145ms total)
T1754 002:116 JLINK_WriteReg(R7, 0x00000000)  returns 0x00 (0000ms, 1145ms total)
T1754 002:116 JLINK_WriteReg(R8, 0x00000000)  returns 0x00 (0000ms, 1145ms total)
T1754 002:116 JLINK_WriteReg(R9, 0x2000017C)  returns 0x00 (0000ms, 1145ms total)
T1754 002:116 JLINK_WriteReg(R10, 0x00000000)  returns 0x00 (0000ms, 1145ms total)
